
**** 10/10/17 09:55:45 ****** PSpice 17.2.0 (March 2016) ****** ID# 0 ********

 ** Profile: "Flyback DCM-Flyback DCM tran"  [ C:\Users\Jesper\Documents\GitHub\E7BACDriver\P-Spice\Simulering med 3f3\Flyback_E7BAC-


 ****     CIRCUIT DESCRIPTION


******************************************************************************




** Creating circuit file "Flyback DCM tran.cir" 
** WARNING: THIS AUTOMATICALLY GENERATED FILE MAY BE OVERWRITTEN BY SUBSEQUENT SIMULATIONS

*Libraries: 
* Profile Libraries :
* Local Libraries :
.LIB "../../../flyback_e7bac-pspicefiles/flyback_e7bac.lib" 
* From [PSPICE NETLIST] section of C:\Users\Jesper\AppData\Roaming\SPB_Data\cdssetup\OrCAD_PSpice\17.2.0\PSpice.ini file:
.lib "nom.lib" 
.lib "C:\Cadence\Company\OrCAD_PSpice\Models\pspice_demokit.lib" 
.lib "C:\Cadence\Company\OrCAD_PSpice\Models\sample_models.lib" 

*Analysis directives: 
.TRAN  0 3m 1m 10n 
.OPTIONS ADVCONV
.PROBE64 V(alias(*)) I(alias(*)) W(alias(*)) D(alias(*)) NOISE(alias(*)) 
.INC "..\Flyback DCM.net" 



**** INCLUDING "Flyback DCM.net" ****
* source FLYBACK_E7BAC
C_Co         0 OUT  50uF  TC=0,0 
V_Vduty         N37647 0  
+PULSE 0V 1V 0 1ns 1ns {d*T} {T}
V_Vd         D 0 {d}
L_Lp         IN S  {Np}  
X_D1    N37451 OUT Flyback_DCM_D1 
X_S1    N37647 0 S 0 Flyback_DCM_S1 
L_Ls         0 N37451  {Ns}  
V_Vi         IN 0 {Vi}
R_Rload         0 OUT  {Rl} TC=0,0 
Kn_K1         L_Lp L_Ls     1 RM8_3D3DCM
.PARAM  vi=100v vo=21v k=1 po={(vo**2)/rl} al=3.525u rl=8.4r d=0.116 ns=10
+  t=10us np=10 fs={1/t}

.subckt Flyback_DCM_D1 1 2  
S_D1         1 2 1 2 _D1
RS_D1         1 2 1G
.MODEL         _D1 VSWITCH Roff=1G Ron=1m Voff=0 Von=0.5
.ends Flyback_DCM_D1

.subckt Flyback_DCM_S1 1 2 3 4  
S_S1         3 4 1 2 _S1
RS_S1         1 2 1G
.MODEL         _S1 VSWITCH Roff=1G Ron=1.0m Voff=0.0V Von=1.0V
.ends Flyback_DCM_S1

**** RESUMING "Flyback DCM tran.cir" ****
.END

**** 10/10/17 09:55:45 ****** PSpice 17.2.0 (March 2016) ****** ID# 0 ********

 ** Profile: "Flyback DCM-Flyback DCM tran"  [ C:\Users\Jesper\Documents\GitHub\E7BACDriver\P-Spice\Simulering med 3f3\Flyback_E7BAC-


 ****     Ferromagnetic Core MODEL PARAMETERS


******************************************************************************




               RM8_3D3DCM      
       LEVEL    2            
        AREA     .63         
        PATH    3.84         
         GAP     .061        
          MS  390.890000E+03 
           A   29.666        
           C     .17883      
           K   19.204        


**** 10/10/17 09:55:45 ****** PSpice 17.2.0 (March 2016) ****** ID# 0 ********

 ** Profile: "Flyback DCM-Flyback DCM tran"  [ C:\Users\Jesper\Documents\GitHub\E7BACDriver\P-Spice\Simulering med 3f3\Flyback_E7BAC-


 ****     Voltage Controlled Switch MODEL PARAMETERS


******************************************************************************




               X_D1._D1        X_S1._S1        
         RON    1.000000E-03    1.000000E-03 
        ROFF    1.000000E+09    1.000000E+09 
         VON     .5             1            
        VOFF    0               0            


**** 10/10/17 09:55:45 ****** PSpice 17.2.0 (March 2016) ****** ID# 0 ********

 ** Profile: "Flyback DCM-Flyback DCM tran"  [ C:\Users\Jesper\Documents\GitHub\E7BACDriver\P-Spice\Simulering med 3f3\Flyback_E7BAC-


 ****     INITIAL TRANSIENT SOLUTION       TEMPERATURE =   27.000 DEG C


******************************************************************************



 NODE   VOLTAGE     NODE   VOLTAGE     NODE   VOLTAGE     NODE   VOLTAGE


(    D)     .1160  (    S)  100.0000  (   IN)  100.0000  (  OUT)    0.0000      

(N37451)    0.0000 (N37647)    0.0000 




    VOLTAGE SOURCE CURRENTS
    NAME         CURRENT

    V_Vduty      0.000E+00
    V_Vd         0.000E+00
    V_Vi        -1.000E-07

    TOTAL POWER DISSIPATION   1.00E-05  WATTS



          JOB CONCLUDED

**** 10/10/17 09:55:45 ****** PSpice 17.2.0 (March 2016) ****** ID# 0 ********

 ** Profile: "Flyback DCM-Flyback DCM tran"  [ C:\Users\Jesper\Documents\GitHub\E7BACDriver\P-Spice\Simulering med 3f3\Flyback_E7BAC-


 ****     JOB STATISTICS SUMMARY


******************************************************************************



  Total job time (using Solver 1)   =        7.08
